Circuit: * C:\users\quan\My Documents\VGU\Power Meter\Draft1.asc

Direct Newton iteration for .op point succeeded.
Semiconductor Device Operating Points:
                        --- VDMOSFET Transistors ---
Name:          m1
Model:       irf9410
Id:          7.98e-01
Vgs:         8.00e+00
Vds:         1.94e-02
Vth:         2.00e+00
Gm:          1.33e-01
Gds:         3.00e+02
Cgs:         1.20e-09
Cgd:         7.00e-10
Cbody:       3.57e-10



Date: Tue Jan 03 15:34:52 2023
Total elapsed time: 0.133 seconds.

tnom = 27
temp = 27
method = trap
totiter = 6
traniter = 0
tranpoints = 0
accept = 0
rejected = 0
matrix size = 7
fillins = 0
solver = Normal
Matrix Compiler1: 348 bytes object code size
Matrix Compiler2: 535 bytes object code size
